time	I(D)	I(L1)	I(a)
0.000000000000000e+000	4.500000e-002	-5.661430e+001	-5.659930e+001
8.500000000002256e-005	4.500000e-002	-5.472013e+001	-5.470513e+001
9.500000000002562e-005	2.373413e+001	-5.443909e+001	-5.442409e+001
1.050000000000287e-004	7.126723e+001	-5.397205e+001	-5.395705e+001
1.150000000000317e-004	9.542026e+001	-5.331976e+001	-5.330475e+001
1.692857142857627e-004	9.873584e+001	-4.949258e+001	-4.947758e+001
2.235714285714936e-004	1.019838e+002	-4.574347e+001	-4.572847e+001
2.778571428572245e-004	1.051641e+002	-4.207242e+001	-4.205742e+001
3.321428571429555e-004	1.082768e+002	-3.847944e+001	-3.846444e+001
3.864285714286864e-004	1.113219e+002	-3.496453e+001	-3.494953e+001
4.407142857144173e-004	1.142993e+002	-3.152768e+001	-3.151268e+001
4.950000000001481e-004	1.172091e+002	-2.816889e+001	-2.815389e+001
5.050000000001512e-004	1.245382e+002	-2.768208e+001	-2.080730e+001
5.150000000001542e-004	1.386373e+002	-2.757146e+001	-6.879805e+000
5.250000000001573e-004	1.458808e+002	-2.783554e+001	7.499722e-003
5.650000000001695e-004	1.475308e+002	-2.937640e+001	7.499707e-003
6.050000000001818e-004	1.491556e+002	-3.089371e+001	7.499692e-003
6.450000000001940e-004	1.507552e+002	-3.238749e+001	7.499677e-003
6.850000000002063e-004	1.523296e+002	-3.385772e+001	7.499662e-003
7.250000000002185e-004	1.538788e+002	-3.530441e+001	7.499647e-003
7.650000000002309e-004	1.554027e+002	-3.672756e+001	7.499633e-003
8.050000000002430e-004	1.569015e+002	-3.812717e+001	7.499619e-003
8.150000000002461e-004	1.178733e+002	-3.841144e+001	7.499617e-003
8.250000000002492e-004	3.935202e+001	-3.850745e+001	7.499616e-003
8.350000000002522e-004	4.500000e-002	-3.841594e+001	7.499617e-003
9.523809523810170e-004	4.500000e-002	-3.665206e+001	7.499634e-003
1.087380952381055e-003	4.500000e-002	-3.472359e+001	7.499653e-003
1.097380952381058e-003	3.524568e+001	-3.464721e+001	7.499654e-003
1.107380952381061e-003	1.057559e+002	-3.475826e+001	7.499653e-003
1.117380952381064e-003	1.412826e+002	-3.505599e+001	7.499650e-003
1.327380952381128e-003	1.500338e+002	-4.229955e+001	7.499577e-003
1.337380952381131e-003	1.397552e+002	-4.250477e+001	-1.060550e+001
1.347380952381135e-003	1.188404e+002	-4.233492e+001	-3.166433e+001
1.357380952381138e-003	1.086864e+002	-4.179150e+001	-4.177650e+001
1.424523809524015e-003	1.124231e+002	-3.737799e+001	-3.736299e+001
1.491666666666893e-003	1.160669e+002	-3.307420e+001	-3.305920e+001
1.558809523809771e-003	1.196178e+002	-2.888016e+001	-2.886516e+001
1.625952380952649e-003	1.230758e+002	-2.479584e+001	-2.478084e+001
1.693095238095526e-003	1.264409e+002	-2.082126e+001	-2.080626e+001
1.760238095238404e-003	1.297131e+002	-1.695641e+001	-1.694141e+001
1.827380952381282e-003	1.328924e+002	-1.320130e+001	-1.318630e+001
1.837380952381285e-003	9.991447e+001	-1.271192e+001	-1.269692e+001
1.847380952381288e-003	3.337375e+001	-1.241162e+001	-1.239662e+001
1.857380952381291e-003	4.500000e-002	-1.229965e+001	-1.228465e+001
1.904761904761972e-003	4.500000e-002	-1.206846e+001	-1.205346e+001
1.949761904761982e-003	4.500000e-002	-1.185301e+001	-1.183801e+001
1.959761904761985e-003	3.189669e+001	-1.174327e+001	-1.172827e+001
1.969761904761988e-003	9.572229e+001	-1.144684e+001	-1.143184e+001
1.979761904761991e-003	1.279402e+002	-1.096447e+001	-1.094947e+001
2.009761904762000e-003	1.293946e+002	-9.343094e+000	-9.328094e+000
2.039761904762009e-003	1.308322e+002	-7.740512e+000	-7.725511e+000
2.069761904762019e-003	1.322529e+002	-6.156726e+000	-6.141725e+000
2.099761904762028e-003	1.336568e+002	-4.591736e+000	-4.576735e+000
2.129761904762037e-003	1.350438e+002	-3.045542e+000	-3.030542e+000
2.159761904762046e-003	1.364140e+002	-1.518144e+000	-1.503144e+000
2.189761904762055e-003	1.377673e+002	-9.542916e-003	5.457092e-003
2.209761904762062e-003	1.386608e+002	9.865412e-001	1.001541e+000
2.255476190476361e-003	1.406749e+002	3.231777e+000	3.246776e+000
2.301190476190661e-003	1.426541e+002	5.438065e+000	5.453065e+000
2.346904761904961e-003	1.445983e+002	7.605407e+000	7.620406e+000
2.392619047619260e-003	1.465076e+002	9.733802e+000	9.748801e+000
2.438333333333560e-003	1.483819e+002	1.182325e+001	1.183825e+001
2.484047619047860e-003	1.502213e+002	1.387375e+001	1.388875e+001
2.529761904762160e-003	1.520258e+002	1.588531e+001	1.590030e+001
2.539761904762163e-003	1.482901e+002	1.619608e+001	1.214519e+001
2.549761904762166e-003	1.404429e+002	1.613136e+001	4.089691e+000
2.559761904762169e-003	1.367535e+002	1.569265e+001	7.500158e-003
2.619761904762187e-003	1.394369e+002	1.235588e+001	7.500124e-003
2.629761904762190e-003	1.048097e+002	1.186988e+001	7.500120e-003
2.639761904762193e-003	3.500332e+001	1.157295e+001	7.500116e-003
2.649761904762196e-003	4.500000e-002	1.146433e+001	7.500115e-003
2.857142857142926e-003	4.500000e-002	1.055079e+001	7.500106e-003
3.092142857142995e-003	4.500000e-002	9.603341e+000	7.500097e-003
3.102142857142998e-003	2.909132e+001	9.502591e+000	7.500096e-003
3.112142857143001e-003	8.731738e+001	9.215118e+000	7.500092e-003
3.122142857143004e-003	1.188776e+002	8.866420e+000	2.185926e+000
3.132142857143007e-003	1.237218e+002	8.825562e+000	6.748862e+000
3.141306456249264e-003	1.262061e+002	9.131234e+000	9.146234e+000
3.227020741963576e-003	1.303645e+002	1.302562e+001	1.304062e+001
3.312735027677888e-003	1.343936e+002	1.679894e+001	1.681394e+001
3.398449313392200e-003	1.382934e+002	2.045120e+001	2.046619e+001
3.484163599106512e-003	1.420639e+002	2.398239e+001	2.399739e+001
3.569877884820824e-003	1.457052e+002	2.739252e+001	2.740752e+001
3.655592170535136e-003	1.492172e+002	3.068159e+001	3.069659e+001
3.741306456249448e-003	1.525999e+002	3.384960e+001	3.386460e+001
3.751306456249451e-003	1.146557e+002	3.415096e+001	3.416596e+001
3.761306456249454e-003	3.828093e+001	3.426400e+001	3.427900e+001
3.771306456249457e-003	4.500000e-002	3.418945e+001	3.420445e+001
3.809523809523881e-003	4.500000e-002	3.367013e+001	3.368513e+001
3.844523809523888e-003	4.500000e-002	3.320170e+001	3.321670e+001
3.854523809523891e-003	3.683076e+001	3.313140e+001	3.314640e+001
3.864523809523894e-003	1.105048e+002	3.324851e+001	3.326351e+001
3.874523809523897e-003	1.475976e+002	3.355227e+001	3.356727e+001
3.951666666666778e-003	1.506992e+002	3.632381e+001	3.633881e+001
4.028809523809658e-003	1.537132e+002	3.901706e+001	3.903206e+001
4.105952380952540e-003	1.566395e+002	4.163202e+001	4.164702e+001
4.183095238095421e-003	1.594783e+002	4.416870e+001	4.418370e+001
4.260238095238301e-003	1.622294e+002	4.662708e+001	4.664208e+001
4.337380952381182e-003	1.648929e+002	4.900718e+001	4.902218e+001
4.414523809524062e-003	1.674688e+002	5.130899e+001	5.132399e+001
4.424523809524066e-003	1.388140e+002	5.166534e+001	5.168034e+001
4.434523809524069e-003	8.128986e+001	5.220738e+001	5.222238e+001
4.444523809524072e-003	5.297939e+001	5.293439e+001	5.294939e+001
4.554523809524105e-003	6.145983e+001	6.141483e+001	6.142983e+001
4.564523809524108e-003	4.648298e+001	6.204267e+001	4.645111e+001
4.574523809524111e-003	1.558704e+001	6.229375e+001	1.555142e+001
4.584523809524115e-003	4.500000e-002	6.216957e+001	7.500622e-003
4.761904761904835e-003	4.500000e-002	5.790700e+001	7.500580e-003
4.926904761904882e-003	4.500000e-002	5.420517e+001	7.500543e-003
4.936904761904885e-003	1.361290e+001	5.411331e+001	1.357728e+001
4.946904761904888e-003	4.094399e+001	5.439608e+001	4.091212e+001
4.956904761904891e-003	5.509696e+001	5.505196e+001	5.506696e+001
5.116904761904940e-003	6.717899e+001	6.713399e+001	6.714899e+001
5.126904761904944e-003	8.614886e+001	6.780135e+001	6.781635e+001
5.136904761904947e-003	1.232831e+002	6.827892e+001	6.829391e+001
5.146904761904950e-003	1.420288e+002	6.856744e+001	6.858244e+001
5.215476190476400e-003	1.449422e+002	7.008972e+001	7.010472e+001
5.284047619047849e-003	1.477818e+002	7.157340e+001	7.158840e+001
5.352619047619299e-003	1.505476e+002	7.301850e+001	7.303349e+001
5.421190476190748e-003	1.532394e+002	7.442500e+001	7.443999e+001
5.489761904762198e-003	1.558575e+002	7.579291e+001	7.580790e+001
5.558333333333648e-003	1.584016e+002	7.712222e+001	7.713722e+001
5.626904761905097e-003	1.608719e+002	7.841295e+001	7.842795e+001
5.636904761905100e-003	1.208431e+002	7.853623e+001	7.855123e+001
5.646904761905103e-003	4.034065e+001	7.847190e+001	7.848690e+001
5.656904761905106e-003	4.500000e-002	7.822070e+001	7.823570e+001
5.714285714285783e-003	4.500000e-002	7.644373e+001	7.645873e+001
5.779285714285799e-003	4.500000e-002	7.448018e+001	7.449518e+001
5.789285714285802e-003	3.804621e+001	7.424493e+001	7.425993e+001
5.799285714285805e-003	1.141463e+002	7.419775e+001	7.421275e+001
5.809285714285808e-003	1.524400e+002	7.433788e+001	7.435287e+001
6.209285714285931e-003	1.668479e+002	8.181702e+001	8.183202e+001
6.219285714285934e-003	1.459157e+002	8.205146e+001	8.206646e+001
6.229285714285937e-003	1.038034e+002	8.247208e+001	8.248708e+001
6.239285714285940e-003	8.312315e+001	8.307816e+001	8.309315e+001
6.282142857143096e-003	8.595685e+001	8.591185e+001	8.592685e+001
6.325000000000252e-003	8.874431e+001	8.869932e+001	8.871431e+001
6.367857142857408e-003	9.148554e+001	9.144055e+001	9.145555e+001
6.410714285714565e-003	9.418054e+001	9.413554e+001	9.415054e+001
6.453571428571720e-003	9.682930e+001	9.678430e+001	9.679930e+001
6.496428571428876e-003	9.943182e+001	9.938683e+001	9.940183e+001
6.539285714286032e-003	1.019881e+002	1.019431e+002	1.019581e+002
6.549285714286035e-003	7.679810e+001	1.024090e+002	7.676623e+001
6.559285714286038e-003	2.567859e+001	1.024988e+002	2.564296e+001
6.569285714286041e-003	4.500000e-002	1.022139e+002	7.501023e-003
6.666666666666744e-003	4.500000e-002	9.830479e+001	7.500984e-003
6.751666666666767e-003	4.500000e-002	9.501576e+001	7.500951e-003
6.761666666666770e-003	2.373413e+001	9.476083e+001	2.369851e+001
6.771666666666773e-003	7.126724e+001	9.488116e+001	7.123537e+001
6.781666666666776e-003	9.542027e+001	9.537527e+001	9.539027e+001
6.835952380952507e-003	9.873585e+001	9.869086e+001	9.870585e+001
6.890238095238238e-003	1.019838e+002	1.019388e+002	1.019538e+002
6.944523809523969e-003	1.051641e+002	1.051191e+002	1.051341e+002
6.998809523809700e-003	1.082768e+002	1.082318e+002	1.082468e+002
7.053095238095431e-003	1.113219e+002	1.112769e+002	1.112919e+002
7.107380952381162e-003	1.142993e+002	1.142543e+002	1.142693e+002
7.161666666666892e-003	1.172091e+002	1.171641e+002	1.171791e+002
7.171666666666896e-003	1.245382e+002	1.176316e+002	1.176466e+002
7.181666666666899e-003	1.386373e+002	1.179100e+002	1.179250e+002
7.191666666666902e-003	1.458808e+002	1.180002e+002	1.180152e+002
7.231666666666914e-003	1.475308e+002	1.181094e+002	1.181244e+002
7.271666666666926e-003	1.491556e+002	1.182169e+002	1.182319e+002
7.311666666666938e-003	1.507552e+002	1.183227e+002	1.183377e+002
7.351666666666951e-003	1.523296e+002	1.184269e+002	1.184419e+002
7.391666666666963e-003	1.538788e+002	1.185294e+002	1.185444e+002
7.431666666666975e-003	1.554028e+002	1.186302e+002	1.186452e+002
7.471666666666987e-003	1.569015e+002	1.187294e+002	1.187443e+002
7.481666666666990e-003	1.178733e+002	1.186915e+002	1.187065e+002
7.491666666666993e-003	3.935202e+001	1.184667e+002	1.184817e+002
7.501666666666997e-003	4.500000e-002	1.180557e+002	1.180707e+002
7.619047619047692e-003	4.500000e-002	1.126351e+002	1.126501e+002
7.754047619047730e-003	4.500000e-002	1.067088e+002	1.067238e+002
7.764047619047733e-003	3.524568e+001	1.063447e+002	1.063597e+002
7.774047619047736e-003	1.057559e+002	1.061693e+002	1.061843e+002
7.784047619047739e-003	1.412827e+002	1.061817e+002	1.061967e+002
7.994047619047803e-003	1.500338e+002	1.076892e+002	1.077042e+002
8.004047619047806e-003	1.397552e+002	1.078203e+002	1.078353e+002
8.014047619047809e-003	1.188404e+002	1.081379e+002	1.081529e+002
8.024047619047812e-003	1.086864e+002	1.086414e+002	1.086564e+002
8.091190476190691e-003	1.124231e+002	1.123781e+002	1.123931e+002
8.158333333333568e-003	1.160669e+002	1.160220e+002	1.160370e+002
8.225476190476446e-003	1.196178e+002	1.195729e+002	1.195879e+002
8.292619047619323e-003	1.230758e+002	1.230309e+002	1.230459e+002
8.359761904762201e-003	1.264409e+002	1.263959e+002	1.264109e+002
8.426904761905080e-003	1.297131e+002	1.296681e+002	1.296831e+002
8.494047619047956e-003	1.328924e+002	1.328474e+002	1.328624e+002
8.504047619047959e-003	9.991447e+001	1.331898e+002	9.988260e+001
8.514047619047963e-003	3.337375e+001	1.331566e+002	3.333813e+001
8.524047619047966e-003	4.500000e-002	1.327492e+002	7.501328e-003
8.571428571428653e-003	4.500000e-002	1.302540e+002	7.501303e-003
8.616428571428664e-003	4.500000e-002	1.279286e+002	7.501280e-003
8.626428571428667e-003	3.189669e+001	1.275422e+002	3.186107e+001
8.636428571428670e-003	9.572229e+001	1.275315e+002	9.569041e+001
8.646428571428673e-003	1.279402e+002	1.278952e+002	1.279102e+002
8.676428571428682e-003	1.293946e+002	1.293496e+002	1.293646e+002
8.706428571428691e-003	1.308322e+002	1.307872e+002	1.308022e+002
8.736428571428700e-003	1.322530e+002	1.322080e+002	1.322230e+002
8.766428571428710e-003	1.336568e+002	1.336118e+002	1.336268e+002
8.796428571428719e-003	1.350439e+002	1.349988e+002	1.350139e+002
8.826428571428728e-003	1.364140e+002	1.363690e+002	1.363840e+002
8.856428571428737e-003	1.377673e+002	1.377223e+002	1.377373e+002
8.876428571428743e-003	1.386608e+002	1.386158e+002	1.386308e+002
8.922142857143043e-003	1.406749e+002	1.406299e+002	1.406449e+002
8.967857142857343e-003	1.426541e+002	1.426091e+002	1.426241e+002
9.013571428571643e-003	1.445983e+002	1.445533e+002	1.445683e+002
9.059285714285941e-003	1.465076e+002	1.464626e+002	1.464776e+002
9.105000000000241e-003	1.483819e+002	1.483369e+002	1.483519e+002
9.150714285714541e-003	1.502213e+002	1.501763e+002	1.501913e+002
9.196428571428841e-003	1.520258e+002	1.519808e+002	1.519958e+002
9.206428571428844e-003	1.482901e+002	1.523091e+002	1.523241e+002
9.216428571428847e-003	1.404429e+002	1.524490e+002	1.524640e+002
9.226428571428851e-003	1.367535e+002	1.524012e+002	1.524162e+002
9.286428571428869e-003	1.394369e+002	1.517478e+002	1.517628e+002
9.296428571428872e-003	1.048097e+002	1.515780e+002	1.515930e+002
9.306428571428875e-003	3.500333e+001	1.512218e+002	1.512368e+002
9.316428571428878e-003	4.500000e-002	1.506799e+002	1.506949e+002
9.523809523809601e-003	4.500000e-002	1.386729e+002	1.386879e+002
9.758809523809670e-003	4.500000e-002	1.262202e+002	1.262352e+002
9.768809523809673e-003	2.909132e+001	1.257782e+002	1.257932e+002
9.778809523809676e-003	8.731738e+001	1.255251e+002	1.255401e+002
9.788809523809679e-003	1.188776e+002	1.255225e+002	1.255375e+002
9.798809523809682e-003	1.237218e+002	1.257667e+002	1.257817e+002
9.807973121742621e-003	1.262061e+002	1.261611e+002	1.261761e+002
9.917973121742654e-003	1.315313e+002	1.314863e+002	1.315013e+002
9.927973121742657e-003	1.320039e+002	1.319589e+002	1.319739e+002
9.996544550314106e-003	1.351884e+002	1.351434e+002	1.351584e+002
1.006511597888556e-002	1.382921e+002	1.382471e+002	1.382621e+002
1.013368740745701e-002	1.413152e+002	1.412702e+002	1.412852e+002
1.020225883602846e-002	1.442574e+002	1.442125e+002	1.442274e+002
1.027083026459991e-002	1.471190e+002	1.470740e+002	1.470890e+002
1.033940169317136e-002	1.498998e+002	1.498548e+002	1.498698e+002
1.040797312174280e-002	1.525999e+002	1.525549e+002	1.525699e+002
1.041797312174281e-002	1.146557e+002	1.528186e+002	1.146238e+002
1.042797312174281e-002	3.828093e+001	1.527069e+002	3.824530e+001
1.043797312174281e-002	4.500000e-002	1.522215e+002	7.501523e-003
1.047619047619056e-002	4.500000e-002	1.499093e+002	7.501500e-003
1.051119047619057e-002	4.500000e-002	1.478237e+002	7.501479e-003
1.052119047619057e-002	3.683076e+001	1.473577e+002	3.679514e+001
1.053119047619058e-002	1.105048e+002	1.472679e+002	1.104729e+002
1.054119047619058e-002	1.475976e+002	1.475526e+002	1.475676e+002
1.061833333333346e-002	1.506992e+002	1.506542e+002	1.506692e+002
1.069547619047634e-002	1.537132e+002	1.536682e+002	1.536832e+002
1.077261904761922e-002	1.566395e+002	1.565945e+002	1.566095e+002
1.084976190476210e-002	1.594783e+002	1.594333e+002	1.594483e+002
1.092690476190498e-002	1.622294e+002	1.621844e+002	1.621994e+002
1.100404761904786e-002	1.648929e+002	1.648479e+002	1.648629e+002
1.108119047619074e-002	1.674688e+002	1.674238e+002	1.674388e+002
1.109119047619075e-002	1.388140e+002	1.676904e+002	1.677054e+002
1.110119047619075e-002	8.128986e+001	1.677689e+002	1.677838e+002
1.111119047619075e-002	5.297939e+001	1.676598e+002	1.676748e+002
1.122119047619079e-002	6.145983e+001	1.658163e+002	1.658313e+002
1.123119047619079e-002	4.648298e+001	1.655903e+002	1.656053e+002
1.124119047619079e-002	1.558704e+001	1.651781e+002	1.651931e+002
1.125119047619080e-002	4.500000e-002	1.645805e+002	1.645955e+002
1.142857142857151e-002	4.500000e-002	1.532962e+002	1.533112e+002
1.159357142857156e-002	4.500000e-002	1.434964e+002	1.435114e+002
1.160357142857156e-002	1.361290e+001	1.429854e+002	1.430004e+002
1.161357142857156e-002	4.094399e+001	1.426635e+002	1.426785e+002
1.162357142857157e-002	5.509696e+001	1.425301e+002	1.425451e+002
1.178357142857162e-002	6.717899e+001	1.414345e+002	1.414495e+002
1.179357142857162e-002	8.614886e+001	1.414307e+002	1.414457e+002
1.180357142857162e-002	1.232831e+002	1.416140e+002	1.416290e+002
1.181357142857163e-002	1.420288e+002	1.419838e+002	1.419988e+002
1.188214285714307e-002	1.449422e+002	1.448972e+002	1.449122e+002
1.195071428571452e-002	1.477818e+002	1.477368e+002	1.477518e+002
1.201928571428597e-002	1.505476e+002	1.505026e+002	1.505176e+002
1.208785714285742e-002	1.532394e+002	1.531945e+002	1.532094e+002
1.215642857142887e-002	1.558575e+002	1.558125e+002	1.558275e+002
1.222500000000032e-002	1.584016e+002	1.583566e+002	1.583716e+002
1.229357142857177e-002	1.608719e+002	1.608269e+002	1.608419e+002
1.230357142857178e-002	1.208431e+002	1.610575e+002	1.208113e+002
1.231357142857178e-002	4.034065e+001	1.609129e+002	4.030503e+001
1.232357142857178e-002	4.500000e-002	1.603947e+002	7.501605e-003
1.238095238095247e-002	4.500000e-002	1.567509e+002	7.501568e-003
1.244595238095249e-002	4.500000e-002	1.527246e+002	7.501528e-003
1.245595238095249e-002	3.804621e+001	1.522390e+002	3.801059e+001
1.246595238095249e-002	1.141463e+002	1.521297e+002	1.141144e+002
1.247595238095250e-002	1.524400e+002	1.523950e+002	1.524100e+002
1.287595238095262e-002	1.668479e+002	1.668029e+002	1.668179e+002
1.288595238095262e-002	1.459157e+002	1.670720e+002	1.670870e+002
1.289595238095263e-002	1.038034e+002	1.671529e+002	1.671679e+002
1.290595238095263e-002	8.312315e+001	1.670463e+002	1.670613e+002
1.294880952380978e-002	8.595685e+001	1.663293e+002	1.663443e+002
1.299166666666694e-002	8.874431e+001	1.656240e+002	1.656390e+002
1.303452380952410e-002	9.148554e+001	1.649304e+002	1.649454e+002
1.307738095238125e-002	9.418054e+001	1.642486e+002	1.642636e+002
1.312023809523841e-002	9.682930e+001	1.635784e+002	1.635934e+002
1.316309523809557e-002	9.943182e+001	1.629199e+002	1.629349e+002
1.320595238095272e-002	1.019881e+002	1.622731e+002	1.622881e+002
1.321595238095272e-002	7.679810e+001	1.620613e+002	1.620763e+002
1.322595238095273e-002	2.567859e+001	1.616632e+002	1.616782e+002
1.323595238095273e-002	4.500000e-002	1.610796e+002	1.610946e+002
1.333333333333342e-002	4.500000e-002	1.549191e+002	1.549341e+002
1.341833333333344e-002	4.500000e-002	1.497359e+002	1.497509e+002
1.342833333333345e-002	2.373413e+001	1.491999e+002	1.492149e+002
1.343833333333345e-002	7.126724e+001	1.488532e+002	1.488682e+002
1.344833333333345e-002	9.542027e+001	1.486950e+002	1.487100e+002
1.350261904761918e-002	9.873585e+001	1.481834e+002	1.481984e+002
1.355690476190491e-002	1.019838e+002	1.476823e+002	1.476973e+002
1.361119047619064e-002	1.051641e+002	1.471916e+002	1.472066e+002
1.366547619047638e-002	1.082768e+002	1.467113e+002	1.467263e+002
1.371976190476211e-002	1.113219e+002	1.462414e+002	1.462564e+002
1.377404761904784e-002	1.142993e+002	1.457820e+002	1.457970e+002
1.382833333333357e-002	1.172091e+002	1.453330e+002	1.453480e+002
1.383833333333357e-002	1.245382e+002	1.453137e+002	1.453287e+002
