time	I(D)	I(L1)	I(a)
0.000000000000000e+000	4.500000e-002	-3.538070e+001	-3.536570e+001
1.152587890620865e-004	4.500000e-002	-3.152733e+001	-3.151233e+001
1.252587890620896e-004	7.977761e+000	-3.142072e+001	-2.347483e+001
1.352587890620927e-004	2.417889e+001	-3.193705e+001	-7.793785e+000
1.452587890620957e-004	3.311513e+001	-3.307013e+001	7.499670e-003
1.652587890621018e-004	3.576009e+001	-3.571509e+001	7.499644e-003
1.752587890621049e-004	4.824565e+001	-3.691420e+001	7.499631e-003
1.852587890621080e-004	7.178971e+001	-3.779042e+001	7.499623e-003
1.952587890621110e-004	8.391653e+001	-3.834698e+001	7.499617e-003
2.295445033478358e-004	8.669769e+001	-3.985828e+001	7.499602e-003
2.638302176335606e-004	8.939242e+001	-4.132260e+001	7.499587e-003
2.981159319192854e-004	9.200071e+001	-4.273995e+001	7.499573e-003
3.324016462050102e-004	9.452257e+001	-4.411034e+001	7.499560e-003
3.666873604907350e-004	9.695800e+001	-4.543376e+001	7.499546e-003
4.009730747764598e-004	9.930699e+001	-4.671021e+001	7.499533e-003
4.352587890621845e-004	1.015695e+002	-4.793970e+001	7.499521e-003
4.452587890621876e-004	7.651338e+001	-4.818790e+001	7.499519e-003
4.552587890621906e-004	2.558842e+001	-4.812270e+001	7.499519e-003
4.652587890621937e-004	4.500000e-002	-4.774719e+001	7.499523e-003
4.702809709818064e-004	4.500000e-002	-4.750763e+001	7.499525e-003
4.753031529014191e-004	4.500000e-002	-4.726927e+001	7.499528e-003
4.803253348210317e-004	4.500000e-002	-4.703211e+001	7.499530e-003
4.853475167406444e-004	4.500000e-002	-4.679616e+001	7.499533e-003
4.903696986602571e-004	4.500000e-002	-4.656142e+001	7.499535e-003
4.953918805798697e-004	4.500000e-002	-4.632788e+001	7.499537e-003
5.004140624994824e-004	4.500000e-002	-4.609555e+001	7.499540e-003
5.428359374816186e-004	4.500000e-002	-4.418084e+001	7.499559e-003
5.528359374816216e-004	2.314658e+001	-4.384458e+001	7.499562e-003
5.628359374816247e-004	6.953430e+001	-4.382262e+001	7.499563e-003
5.728359374816278e-004	9.318775e+001	-4.411182e+001	7.499559e-003
6.028359374816369e-004	9.535434e+001	-4.526770e+001	7.499548e-003
6.328359374816461e-004	9.746130e+001	-4.639177e+001	7.499536e-003
6.628359374816553e-004	9.950864e+001	-4.748403e+001	7.499526e-003
6.928359374816645e-004	1.014964e+002	-4.854448e+001	7.499515e-003
7.228359374816737e-004	1.034244e+002	-4.957312e+001	7.499505e-003
7.528359374816829e-004	1.052929e+002	-5.056996e+001	7.499495e-003
7.828359374816921e-004	1.071017e+002	-5.153498e+001	7.499485e-003
7.928359374816951e-004	9.377971e+001	-5.195468e+001	7.499481e-003
8.028359374816982e-004	6.667586e+001	-5.268116e+001	7.499474e-003
8.128359374817012e-004	5.375634e+001	-5.371134e+001	7.499463e-003
8.828359374817227e-004	6.139028e+001	-6.134528e+001	7.499387e-003
8.928359374817257e-004	4.657970e+001	-6.218555e+001	-1.564147e+001
9.028359374817288e-004	1.564386e+001	-6.239556e+001	-4.678357e+001
9.128359374817319e-004	4.500000e-002	-6.198159e+001	-6.196659e+001
1.000000000000077e-003	4.500000e-002	-5.680302e+001	-5.678802e+001
1.075000000000097e-003	4.500000e-002	-5.269732e+001	-5.268232e+001
1.085000000000100e-003	1.316526e+001	-5.237991e+001	-3.924653e+001
1.095000000000103e-003	3.968973e+001	-5.268756e+001	-1.303345e+001
1.105000000000106e-003	5.365903e+001	-5.361403e+001	7.499464e-003
1.120714285714397e-003	5.542008e+001	-5.537509e+001	7.499447e-003
1.136428571428687e-003	5.715470e+001	-5.710970e+001	7.499429e-003
1.152142857142978e-003	5.886288e+001	-5.881788e+001	7.499412e-003
1.167857142857268e-003	6.054462e+001	-6.049962e+001	7.499395e-003
1.183571428571559e-003	6.219992e+001	-6.215492e+001	7.499379e-003
1.199285714285849e-003	6.382878e+001	-6.378378e+001	7.499363e-003
1.215000000000140e-003	6.543120e+001	-6.538620e+001	7.499347e-003
1.225000000000143e-003	7.134497e+001	-6.628988e+001	7.499338e-003
1.235000000000146e-003	8.210630e+001	-6.687362e+001	7.499332e-003
1.245000000000149e-003	8.785404e+001	-6.714060e+001	7.499329e-003
1.269285714285871e-003	8.974206e+001	-6.752751e+001	7.499325e-003
1.293571428571592e-003	9.158733e+001	-6.790565e+001	7.499322e-003
1.317857142857314e-003	9.338986e+001	-6.827504e+001	7.499318e-003
1.342142857143036e-003	9.514964e+001	-6.863566e+001	7.499314e-003
1.366428571428757e-003	9.686668e+001	-6.898753e+001	7.499311e-003
1.390714285714479e-003	9.854097e+001	-6.933063e+001	7.499307e-003
1.415000000000201e-003	1.001725e+002	-6.966498e+001	7.499304e-003
1.425000000000204e-003	7.547259e+001	-6.969687e+001	7.499304e-003
1.435000000000207e-003	2.524265e+001	-6.941750e+001	7.499306e-003
1.445000000000210e-003	4.500000e-002	-6.882997e+001	7.499313e-003
1.500000000000827e-003	4.500000e-002	-6.514249e+001	7.499349e-003
1.500000000001528e-003	4.500000e-002	-6.514249e+001	7.499349e-003
1.500000000002326e-003	4.500000e-002	-6.514249e+001	7.499349e-003
1.500000000003929e-003	4.500000e-002	-6.514249e+001	7.499349e-003
1.500000000013546e-003	4.500000e-002	-6.514249e+001	7.499349e-003
1.500000000029568e-003	4.500000e-002	-6.514249e+001	7.499349e-003
1.500000000035980e-003	4.500000e-002	-6.514249e+001	7.499349e-003
1.500000000048796e-003	4.500000e-002	-6.514249e+001	7.499349e-003
1.500000000074435e-003	4.500000e-002	-6.514249e+001	7.499349e-003
1.500000000125706e-003	4.500000e-002	-6.514249e+001	7.499349e-003
1.500000000260307e-003	4.500000e-002	-6.514249e+001	7.499349e-003
1.500000000298762e-003	4.500000e-002	-6.514249e+001	7.499349e-003
1.500000000478223e-003	4.500000e-002	-6.514249e+001	7.499349e-003
1.500000000837137e-003	4.500000e-002	-6.514249e+001	7.499349e-003
1.500000002067715e-003	4.500000e-002	-6.514249e+001	7.499349e-003
1.500000006990014e-003	4.500000e-002	-6.514249e+001	7.499349e-003
1.563763772061882e-003	4.500000e-002	-6.111733e+001	7.499389e-003
1.573763772061886e-003	2.192720e+001	-6.061244e+001	7.499394e-003
1.583763772061889e-003	6.588831e+001	-6.042352e+001	7.499396e-003
1.593763772061892e-003	8.835869e+001	-6.054743e+001	7.499395e-003
1.613763772061898e-003	8.990754e+001	-6.099740e+001	7.499390e-003
1.633763772061904e-003	9.142717e+001	-6.143887e+001	7.499386e-003
1.653763772061910e-003	9.291755e+001	-6.187185e+001	7.499382e-003
1.673763772061916e-003	9.437871e+001	-6.229633e+001	7.499377e-003
1.693763772061922e-003	9.581063e+001	-6.271233e+001	7.499373e-003
1.713763772061928e-003	9.721333e+001	-6.311983e+001	7.499369e-003
1.733763772061935e-003	9.858678e+001	-6.351884e+001	7.499366e-003
1.743763772061938e-003	9.037257e+001	-6.381922e+001	7.499362e-003
1.753763772061941e-003	7.334871e+001	-6.442757e+001	7.499356e-003
1.763763772061944e-003	6.538579e+001	-6.534079e+001	7.499347e-003
1.785192343490522e-003	6.753070e+001	-6.748570e+001	7.499326e-003
1.806620914919100e-003	6.963241e+001	-6.958741e+001	7.499305e-003
1.828049486347678e-003	7.169093e+001	-7.164593e+001	7.499284e-003
1.849478057776256e-003	7.370625e+001	-7.366125e+001	7.499264e-003
1.870906629204834e-003	7.567837e+001	-7.563337e+001	7.499244e-003
1.892335200633412e-003	7.760729e+001	-7.756230e+001	7.499225e-003
1.913763772061990e-003	7.949302e+001	-7.944803e+001	7.499206e-003
1.923763772061993e-003	6.006630e+001	-8.010805e+001	-2.007737e+001
1.933763772061996e-003	2.012437e+001	-8.013961e+001	-6.004711e+001
1.943763772061999e-003	4.500000e-002	-7.954897e+001	-7.953397e+001
2.000000000000078e-003	4.500000e-002	-7.519416e+001	-7.517916e+001
2.055000000000092e-003	4.500000e-002	-7.116933e+001	-7.115434e+001
2.065000000000095e-003	1.769165e+001	-7.066801e+001	-5.300824e+001
2.075000000000098e-003	5.322383e+001	-7.079356e+001	-1.760536e+001
2.085000000000101e-003	7.158475e+001	-7.153976e+001	7.499285e-003
2.105000000000107e-003	7.346566e+001	-7.342066e+001	7.499266e-003
2.125000000000113e-003	7.531106e+001	-7.526607e+001	7.499248e-003
2.145000000000119e-003	7.712097e+001	-7.707597e+001	7.499230e-003
2.165000000000125e-003	7.889538e+001	-7.885038e+001	7.499212e-003
2.185000000000131e-003	8.063428e+001	-8.058929e+001	7.499195e-003
2.205000000000137e-003	8.233769e+001	-8.229269e+001	7.499178e-003
2.225000000000144e-003	8.400560e+001	-8.396060e+001	7.499161e-003
2.235000000000147e-003	8.482799e+001	-8.478299e+001	7.499153e-003
2.245000000000150e-003	8.564218e+001	-8.559718e+001	7.499144e-003
2.265000000000156e-003	8.724634e+001	-8.720134e+001	7.499129e-003
2.275000000000159e-003	8.669869e+001	-8.791499e+001	7.499122e-003
2.280923691813333e-003	8.535062e+001	-8.814752e+001	7.499119e-003
2.287301069545895e-003	8.476322e+001	-8.818029e+001	7.499119e-003
2.306139479244053e-003	8.628996e+001	-8.808884e+001	7.499120e-003
2.316139479244056e-003	8.708960e+001	-8.804093e+001	7.499120e-003
2.326139479244059e-003	8.788127e+001	-8.799350e+001	7.499121e-003
2.336139479244062e-003	8.866507e+001	-8.794655e+001	7.499121e-003
2.346139479244065e-003	8.944106e+001	-8.790006e+001	7.499122e-003
2.366139479244071e-003	9.096995e+001	-8.780848e+001	7.499123e-003
2.386139479244077e-003	9.246854e+001	-8.771870e+001	7.499123e-003
2.396139479244080e-003	6.973309e+001	-8.757084e+001	7.499125e-003
2.406139479244084e-003	2.333587e+001	-8.711350e+001	7.499130e-003
2.416139479244087e-003	4.500000e-002	-8.634978e+001	7.499137e-003
2.500000000000079e-003	4.500000e-002	-7.939728e+001	7.499207e-003
2.593860251921841e-003	4.500000e-002	-7.228132e+001	7.499278e-003
2.603860251921844e-003	1.915195e+001	-7.166528e+001	7.499284e-003
2.613860251921847e-003	5.810251e+001	-7.136348e+001	7.499287e-003
2.623332023909956e-003	7.732091e+001	-7.137498e+001	7.499287e-003
2.631903452481388e-003	7.808322e+001	-7.147662e+001	7.499286e-003
2.640474881052819e-003	7.883916e+001	-7.157740e+001	7.499285e-003
2.649046309624250e-003	7.958875e+001	-7.167733e+001	7.499284e-003
2.657617738195681e-003	8.033197e+001	-7.177642e+001	7.499283e-003
2.666189166767113e-003	8.106882e+001	-7.187466e+001	7.499282e-003
2.674760595338544e-003	8.179932e+001	-7.197205e+001	7.499281e-003
2.683332023909975e-003	8.252345e+001	-7.206859e+001	7.499280e-003
2.693332023909978e-003	8.050037e+001	-7.228384e+001	7.499278e-003
2.703332023909981e-003	7.561311e+001	-7.280707e+001	7.499272e-003
2.713166420071335e-003	7.366732e+001	-7.362233e+001	7.499265e-003
2.730202937160966e-003	7.523713e+001	-7.519213e+001	7.499249e-003
2.747239454250597e-003	7.678148e+001	-7.673648e+001	7.499233e-003
2.764275971340228e-003	7.830038e+001	-7.825538e+001	7.499218e-003
2.781312488429859e-003	7.979382e+001	-7.974882e+001	7.499203e-003
2.798349005519490e-003	8.126180e+001	-8.121680e+001	7.499188e-003
2.815385522609122e-003	8.270433e+001	-8.265933e+001	7.499174e-003
2.832422039698752e-003	8.412141e+001	-8.407641e+001	7.499160e-003
2.842422039698755e-003	8.494264e+001	-8.489764e+001	7.499151e-003
2.862422039698762e-003	8.656065e+001	-8.651566e+001	7.499136e-003
2.892422039698771e-003	8.892776e+001	-8.888277e+001	7.499112e-003
2.932422039698783e-003	9.197538e+001	-9.193038e+001	7.499081e-003
2.942422039698786e-003	6.936569e+001	-9.246612e+001	-2.313605e+001
2.952422039698789e-003	2.321382e+001	-9.237463e+001	-6.919269e+001
2.962422039698792e-003	4.500000e-002	-9.166217e+001	-9.164716e+001
3.000000000000086e-003	4.500000e-002	-8.827716e+001	-8.826215e+001
3.035000000000093e-003	4.500000e-002	-8.524107e+001	-8.522607e+001
3.045000000000096e-003	2.113979e+001	-8.459964e+001	-6.349172e+001
3.055000000000099e-003	6.353392e+001	-8.458647e+001	-2.108818e+001
3.065000000000102e-003	8.524033e+001	-8.519534e+001	7.499149e-003
3.100714285714399e-003	8.808834e+001	-8.804334e+001	7.499120e-003
3.136428571428696e-003	9.084451e+001	-9.079951e+001	7.499093e-003
3.172142857142992e-003	9.350885e+001	-9.346385e+001	7.499066e-003
3.207857142857289e-003	9.608135e+001	-9.603635e+001	7.499040e-003
3.243571428571586e-003	9.856202e+001	-9.851702e+001	7.499016e-003
3.279285714285883e-003	1.009509e+002	-1.009059e+002	7.498992e-003
3.315000000000179e-003	1.032478e+002	-1.032029e+002	7.498968e-003
3.325000000000182e-003	9.722006e+001	-1.037300e+002	7.498963e-003
3.335000000000185e-003	8.459371e+001	-1.039410e+002	7.498961e-003
3.345000000000188e-003	7.875166e+001	-1.038389e+002	7.498962e-003
3.355000000000191e-003	7.962636e+001	-1.036341e+002	7.498964e-003
3.365000000000194e-003	6.016564e+001	-1.033278e+002	7.498967e-003
3.375000000000197e-003	2.015738e+001	-1.027136e+002	7.498974e-003
3.385000000000200e-003	4.500000e-002	-1.017945e+002	7.498983e-003
3.499999999999788e-003	4.500000e-002	-9.072688e+001	7.499093e-003
3.500000000001109e-003	4.500000e-002	-9.072688e+001	7.499093e-003
3.500000000002431e-003	4.500000e-002	-9.072688e+001	7.499093e-003
3.500000000003752e-003	4.500000e-002	-9.072688e+001	7.499093e-003
3.500000000005073e-003	4.500000e-002	-9.072688e+001	7.499093e-003
3.500000000006395e-003	4.500000e-002	-9.072688e+001	7.499093e-003
3.500000000007716e-003	4.500000e-002	-9.072688e+001	7.499093e-003
3.500000000009038e-003	4.500000e-002	-9.072688e+001	7.499093e-003
3.500000000018586e-003	4.500000e-002	-9.072688e+001	7.499093e-003
3.500000000152256e-003	4.500000e-002	-9.072688e+001	7.499093e-003
3.500000000720357e-003	4.500000e-002	-9.072688e+001	7.499093e-003
3.500000000777645e-003	4.500000e-002	-9.072688e+001	7.499093e-003
3.500000000788898e-003	4.500000e-002	-9.072688e+001	7.499093e-003
3.500000000800151e-003	4.500000e-002	-9.072688e+001	7.499093e-003
3.500000000811404e-003	4.500000e-002	-9.072688e+001	7.499093e-003
3.500000000822657e-003	4.500000e-002	-9.072688e+001	7.499093e-003
3.500000000833909e-003	4.500000e-002	-9.072688e+001	7.499093e-003
3.500000000845163e-003	4.500000e-002	-9.072688e+001	7.499093e-003
3.500000000856415e-003	4.500000e-002	-9.072688e+001	7.499093e-003
3.500000001004408e-003	4.500000e-002	-9.072688e+001	7.499093e-003
3.500000001037826e-003	4.500000e-002	-9.072688e+001	7.499093e-003
3.500000001061696e-003	4.500000e-002	-9.072688e+001	7.499093e-003
3.500000001085565e-003	4.500000e-002	-9.072688e+001	7.499093e-003
3.500000001109435e-003	4.500000e-002	-9.072688e+001	7.499093e-003
3.500000001133305e-003	4.500000e-002	-9.072688e+001	7.499093e-003
3.500000001157175e-003	4.500000e-002	-9.072688e+001	7.499093e-003
3.500000001181045e-003	4.500000e-002	-9.072688e+001	7.499093e-003
3.500000001204914e-003	4.500000e-002	-9.072688e+001	7.499093e-003
3.500000001739598e-003	4.500000e-002	-9.072688e+001	7.499093e-003
3.500000002808965e-003	4.500000e-002	-9.072688e+001	7.499093e-003
3.500000006475365e-003	4.500000e-002	-9.072688e+001	7.499093e-003
3.500000095167339e-003	4.500000e-002	-9.072687e+001	7.499093e-003
3.500000183859314e-003	4.500000e-002	-9.072687e+001	7.499093e-003
3.500000272551288e-003	4.500000e-002	-9.072686e+001	7.499093e-003
3.500000361243263e-003	4.500000e-002	-9.072685e+001	7.499093e-003
3.500000449935237e-003	4.500000e-002	-9.072684e+001	7.499093e-003
3.500000538627212e-003	4.500000e-002	-9.072683e+001	7.499093e-003
3.500000627319186e-003	4.500000e-002	-9.072682e+001	7.499093e-003
3.630252000488235e-003	4.500000e-002	-7.964178e+001	7.499204e-003
3.640252000488238e-003	1.552776e+001	-7.895245e+001	7.499211e-003
3.650252000488241e-003	5.074520e+001	-7.868457e+001	7.499213e-003
3.660252000488244e-003	7.494991e+001	-7.904125e+001	7.499210e-003
3.670252000488247e-003	7.985397e+001	-7.980897e+001	7.499203e-003
3.707394857631116e-003	8.300902e+001	-8.296403e+001	7.499171e-003
3.744537714773984e-003	8.605869e+001	-8.601370e+001	7.499140e-003
3.781680571916853e-003	8.900297e+001	-8.895798e+001	7.499111e-003
3.818823429059721e-003	9.184187e+001	-9.179687e+001	7.499082e-003
3.855966286202590e-003	9.457537e+001	-9.453038e+001	7.499055e-003
3.893109143345458e-003	9.720348e+001	-9.715849e+001	7.499029e-003
3.930252000488327e-003	9.972621e+001	-9.968121e+001	7.499004e-003
3.940252000488330e-003	7.514009e+001	-1.001398e+002	-2.503531e+001
3.950252000488333e-003	2.513218e+001	-9.997189e+001	-7.487157e+001
3.960252000488336e-003	4.500000e-002	-9.918378e+001	-9.916878e+001
4.000000000000087e-003	4.500000e-002	-9.531380e+001	-9.529880e+001
4.034621999267705e-003	4.500000e-002	-9.207053e+001	-9.205552e+001
4.044621999267709e-003	2.281328e+001	-9.136108e+001	-6.857968e+001
4.054621999267712e-003	6.853773e+001	-9.128060e+001	-2.277850e+001
4.064621999267715e-003	9.186781e+001	-9.182281e+001	7.499082e-003
4.098907713553439e-003	9.438151e+001	-9.433652e+001	7.499057e-003
4.133193427839165e-003	9.681710e+001	-9.677211e+001	7.499033e-003
4.167479142124889e-003	9.917457e+001	-9.912958e+001	7.499009e-003
4.201764856410614e-003	1.014539e+002	-1.014089e+002	7.498986e-003
4.236050570696339e-003	1.036551e+002	-1.036101e+002	7.498964e-003
4.270336284982064e-003	1.057782e+002	-1.057332e+002	7.498943e-003
4.304621999267788e-003	1.078232e+002	-1.077782e+002	7.498923e-003
4.314621999267791e-003	9.192504e+001	-1.082598e+002	7.498918e-003
4.324621999267794e-003	5.970174e+001	-1.084257e+002	7.498916e-003
4.334621999267797e-003	4.428269e+001	-1.082789e+002	7.498918e-003
4.364621999267807e-003	4.790014e+001	-1.075395e+002	7.498925e-003
4.374621999267810e-003	3.652951e+001	-1.071943e+002	7.498928e-003
4.384621999267813e-003	1.230499e+001	-1.065416e+002	7.498935e-003
4.394621999267816e-003	4.500000e-002	-1.055844e+002	7.498945e-003
4.500000000000087e-003	4.500000e-002	-9.501519e+001	7.499050e-003
4.595000000000113e-003	4.500000e-002	-8.640091e+001	7.499136e-003
4.605000000000116e-003	1.005576e+001	-8.564428e+001	7.499144e-003
4.615000000000119e-003	3.039219e+001	-8.520612e+001	7.499149e-003
4.625000000000122e-003	4.134457e+001	-8.508327e+001	7.499150e-003
4.675000000000137e-003	4.745740e+001	-8.499516e+001	7.499150e-003
4.685000000000140e-003	5.754359e+001	-8.508171e+001	7.499150e-003
4.695000000000144e-003	7.642924e+001	-8.547835e+001	7.499146e-003
4.705000000000147e-003	8.622697e+001	-8.618197e+001	7.499139e-003
4.736428571428727e-003	8.870968e+001	-8.866469e+001	7.499114e-003
4.767857142857309e-003	9.112111e+001	-9.107611e+001	7.499090e-003
4.799285714285890e-003	9.346124e+001	-9.341624e+001	7.499066e-003
4.830714285714471e-003	9.573008e+001	-9.568508e+001	7.499044e-003
4.862142857143052e-003	9.792762e+001	-9.788262e+001	7.499022e-003
4.893571428571633e-003	1.000539e+002	-1.000089e+002	7.499001e-003
4.925000000000214e-003	1.021088e+002	-1.020638e+002	7.498980e-003
4.935000000000217e-003	7.691515e+001	-1.024987e+002	-2.561915e+001
4.945000000000220e-003	2.572189e+001	-1.023073e+002	-7.661728e+001
4.955000000000223e-003	4.500000e-002	-1.014959e+002	-1.014809e+002
4.961474339280928e-003	4.500000e-002	-1.008406e+002	-1.008256e+002
4.967948678561633e-003	4.500000e-002	-1.001893e+002	-1.001743e+002
4.974423017842338e-003	4.500000e-002	-9.954207e+001	-9.952706e+001
4.980897357123044e-003	4.500000e-002	-9.889885e+001	-9.888384e+001
4.987371696403749e-003	4.500000e-002	-9.825966e+001	-9.824465e+001
4.993846035684453e-003	4.500000e-002	-9.762451e+001	-9.760950e+001
5.000320374965159e-003	4.500000e-002	-9.699339e+001	-9.697838e+001
5.050251998900870e-003	4.500000e-002	-9.226848e+001	-9.225347e+001
5.060251998900874e-003	2.286178e+001	-9.155707e+001	-6.872716e+001
5.070251998900877e-003	6.868276e+001	-9.147463e+001	-2.282750e+001
5.080251998900880e-003	9.205991e+001	-9.201491e+001	7.499081e-003
5.105966284615173e-003	9.395056e+001	-9.390556e+001	7.499061e-003
5.131680570329466e-003	9.579607e+001	-9.575107e+001	7.499043e-003
5.157394856043760e-003	9.759644e+001	-9.755144e+001	7.499025e-003
5.183109141758054e-003	9.935167e+001	-9.930667e+001	7.499007e-003
5.208823427472348e-003	1.010618e+002	-1.010168e+002	7.498990e-003
5.234537713186641e-003	1.027267e+002	-1.026817e+002	7.498974e-003
5.260251998900935e-003	1.043465e+002	-1.043015e+002	7.498958e-003
5.270251998900938e-003	9.280685e+001	-1.048177e+002	7.498953e-003
5.280251998900941e-003	6.922251e+001	-1.050179e+002	7.498950e-003
5.290251998900944e-003	5.803255e+001	-1.049051e+002	7.498952e-003
5.305966284615235e-003	5.972541e+001	-1.045678e+002	7.498955e-003
5.321680570329525e-003	6.139286e+001	-1.042357e+002	7.498958e-003
5.337394856043815e-003	6.303489e+001	-1.039086e+002	7.498962e-003
5.353109141758106e-003	6.465151e+001	-1.035865e+002	7.498965e-003
5.368823427472397e-003	6.624270e+001	-1.032696e+002	7.498968e-003
