time	I(L1)	I(a)
0.000000000000000e+000	-2.186666e+001	-2.185166e+001
2.217982700887126e-005	-2.138746e+001	-2.137246e+001
4.435965401774252e-005	-2.091819e+001	-2.090319e+001
6.653948102661379e-005	-2.045883e+001	-2.044383e+001
8.871930803548505e-005	-2.000939e+001	-1.999439e+001
1.108991350443563e-004	-1.956988e+001	-1.955487e+001
1.330789620532276e-004	-1.914028e+001	-1.912528e+001
1.552587890620988e-004	-1.872060e+001	-1.870560e+001
1.652587890621018e-004	-1.874150e+001	-1.393377e+001
1.752587890621049e-004	-1.938408e+001	-4.624059e+000
1.852587890621080e-004	-2.064214e+001	7.499794e-003
1.952587890621110e-004	-2.199133e+001	7.499781e-003
2.052587890621141e-004	-2.301615e+001	7.499770e-003
2.152587890621172e-004	-2.371981e+001	7.499763e-003
2.352587890621233e-004	-2.489880e+001	7.499752e-003
2.552587890621294e-004	-2.605554e+001	7.499740e-003
2.752587890621355e-004	-2.719003e+001	7.499729e-003
2.952587890621417e-004	-2.830227e+001	7.499718e-003
3.152587890621478e-004	-2.939225e+001	7.499707e-003
3.352587890621540e-004	-3.045999e+001	7.499696e-003
3.552587890621600e-004	-3.150547e+001	7.499686e-003
3.652587890621631e-004	-3.191731e+001	7.499681e-003
3.752587890621661e-004	-3.201410e+001	7.499680e-003
3.852587890621692e-004	-3.179899e+001	7.499683e-003
5.000000000000768e-004	-2.834899e+001	7.499717e-003
6.128359374816400e-004	-2.532277e+001	7.499747e-003
6.228359374816431e-004	-2.517429e+001	7.499749e-003
6.328359374816461e-004	-2.533822e+001	7.499747e-003
6.428359374816492e-004	-2.581147e+001	7.499742e-003
6.599787946245116e-004	-2.678818e+001	7.499733e-003
6.771216517673739e-004	-2.774895e+001	7.499723e-003
6.942645089102364e-004	-2.869380e+001	7.499713e-003
7.114073660530988e-004	-2.962271e+001	7.499704e-003
7.285502231959612e-004	-3.053569e+001	7.499695e-003
7.456930803388236e-004	-3.143274e+001	7.499686e-003
7.628359374816859e-004	-3.231387e+001	7.499678e-003
7.728359374816890e-004	-3.292496e+001	7.499672e-003
7.828359374816921e-004	-3.384090e+001	7.499662e-003
7.928359374816951e-004	-3.505867e+001	7.499650e-003
8.328359374817074e-004	-4.021815e+001	7.499598e-003
8.428359374817104e-004	-4.126878e+001	-1.046447e+001
8.528359374817135e-004	-4.168706e+001	-3.130413e+001
8.628359374817166e-004	-4.147929e+001	-4.146428e+001
1.000000000000077e-003	-3.615852e+001	-3.614351e+001
1.135000000000115e-003	-3.159020e+001	-3.157520e+001
1.145000000000118e-003	-3.148296e+001	-2.352167e+001
1.155000000000121e-003	-3.199867e+001	-7.809345e+000
1.165000000000124e-003	-3.313114e+001	7.499669e-003
1.173571428571555e-003	-3.427045e+001	7.499658e-003
1.182142857142987e-003	-3.540023e+001	7.499646e-003
1.190714285714418e-003	-3.652049e+001	7.499635e-003
1.199285714285849e-003	-3.763122e+001	7.499624e-003
1.207857142857280e-003	-3.873243e+001	7.499613e-003
1.216428571428712e-003	-3.982411e+001	7.499602e-003
1.225000000000143e-003	-4.090627e+001	7.499591e-003
1.235000000000146e-003	-4.205369e+001	7.499580e-003
1.245000000000149e-003	-4.287874e+001	7.499572e-003
1.255000000000152e-003	-4.338464e+001	7.499567e-003
1.267857142857299e-003	-4.389440e+001	7.499562e-003
1.280714285714445e-003	-4.439786e+001	7.499557e-003
1.293571428571592e-003	-4.489500e+001	7.499552e-003
1.306428571428739e-003	-4.538582e+001	7.499547e-003
1.319285714285886e-003	-4.587033e+001	7.499542e-003
1.332142857143033e-003	-4.634853e+001	7.499537e-003
1.345000000000179e-003	-4.682041e+001	7.499532e-003
1.355000000000182e-003	-4.707977e+001	7.499530e-003
1.365000000000186e-003	-4.702559e+001	7.499530e-003
1.375000000000189e-003	-4.666101e+001	7.499534e-003
1.500000000000674e-003	-4.117369e+001	7.499589e-003
1.500000000185665e-003	-4.117369e+001	7.499589e-003
1.500000000219083e-003	-4.117369e+001	7.499589e-003
1.500000000229228e-003	-4.117369e+001	7.499589e-003
1.500000000239372e-003	-4.117369e+001	7.499589e-003
1.500000000249517e-003	-4.117369e+001	7.499589e-003
1.500000000259662e-003	-4.117369e+001	7.499589e-003
1.500000000269806e-003	-4.117369e+001	7.499589e-003
1.500000000279951e-003	-4.117369e+001	7.499589e-003
1.500000000290096e-003	-4.117369e+001	7.499589e-003
1.500000000290344e-003	-4.117369e+001	7.499589e-003
1.500000000290591e-003	-4.117369e+001	7.499589e-003
1.500000000290839e-003	-4.117369e+001	7.499589e-003
1.500000000291087e-003	-4.117369e+001	7.499589e-003
1.500000000291335e-003	-4.117369e+001	7.499589e-003
1.500000000291583e-003	-4.117369e+001	7.499589e-003
1.500000000291830e-003	-4.117369e+001	7.499589e-003
1.500000000293117e-003	-4.117369e+001	7.499589e-003
1.500000000294404e-003	-4.117369e+001	7.499589e-003
1.500000000295690e-003	-4.117369e+001	7.499589e-003
1.500000000296977e-003	-4.117369e+001	7.499589e-003
1.500000000298264e-003	-4.117369e+001	7.499589e-003
1.500000000299550e-003	-4.117369e+001	7.499589e-003
1.500000000300837e-003	-4.117369e+001	7.499589e-003
1.500000000304153e-003	-4.117369e+001	7.499589e-003
1.500000000307469e-003	-4.117369e+001	7.499589e-003
1.500000000310784e-003	-4.117369e+001	7.499589e-003
1.500000000314100e-003	-4.117369e+001	7.499589e-003
1.500000000317416e-003	-4.117369e+001	7.499589e-003
1.500000000320732e-003	-4.117369e+001	7.499589e-003
1.500000000324048e-003	-4.117369e+001	7.499589e-003
1.500000000335254e-003	-4.117369e+001	7.499589e-003
1.500000000349658e-003	-4.117369e+001	7.499589e-003
1.500000000364062e-003	-4.117369e+001	7.499589e-003
1.500000000378466e-003	-4.117369e+001	7.499589e-003
1.500000000392871e-003	-4.117369e+001	7.499589e-003
1.500000000407275e-003	-4.117369e+001	7.499589e-003
1.500000000421679e-003	-4.117369e+001	7.499589e-003
1.500000000436083e-003	-4.117369e+001	7.499589e-003
1.500000000440084e-003	-4.117369e+001	7.499589e-003
1.500000000444085e-003	-4.117369e+001	7.499589e-003
1.500000000448085e-003	-4.117369e+001	7.499589e-003
1.500000000452086e-003	-4.117369e+001	7.499589e-003
1.500000000456087e-003	-4.117369e+001	7.499589e-003
1.500000000460088e-003	-4.117369e+001	7.499589e-003
1.500000000464088e-003	-4.117369e+001	7.499589e-003
1.500000000470091e-003	-4.117369e+001	7.499589e-003
1.500000000476093e-003	-4.117369e+001	7.499589e-003
1.500000000482095e-003	-4.117369e+001	7.499589e-003
1.500000000488097e-003	-4.117369e+001	7.499589e-003
1.500000000494099e-003	-4.117369e+001	7.499589e-003
1.500000000500101e-003	-4.117369e+001	7.499589e-003
1.500000000506103e-003	-4.117369e+001	7.499589e-003
1.500000000510905e-003	-4.117369e+001	7.499589e-003
1.500000000511448e-003	-4.117369e+001	7.499589e-003
1.500000000511992e-003	-4.117369e+001	7.499589e-003
1.500000000512535e-003	-4.117369e+001	7.499589e-003
1.500000000513078e-003	-4.117369e+001	7.499589e-003
1.500000000513621e-003	-4.117369e+001	7.499589e-003
1.500000000514165e-003	-4.117369e+001	7.499589e-003
1.500000000514708e-003	-4.117369e+001	7.499589e-003
1.500000000515022e-003	-4.117369e+001	7.499589e-003
1.500000000515336e-003	-4.117369e+001	7.499589e-003
1.500000000515650e-003	-4.117369e+001	7.499589e-003
1.500000000515965e-003	-4.117369e+001	7.499589e-003
1.500000000516279e-003	-4.117369e+001	7.499589e-003
1.500000000516593e-003	-4.117369e+001	7.499589e-003
1.500000000516907e-003	-4.117369e+001	7.499589e-003
1.500000000518913e-003	-4.117369e+001	7.499589e-003
1.500000000519169e-003	-4.117369e+001	7.499589e-003
1.500000000519426e-003	-4.117369e+001	7.499589e-003
1.500000000519683e-003	-4.117369e+001	7.499589e-003
1.500000000519940e-003	-4.117369e+001	7.499589e-003
1.500000000520196e-003	-4.117369e+001	7.499589e-003
1.500000000520453e-003	-4.117369e+001	7.499589e-003
1.500000000520710e-003	-4.117369e+001	7.499589e-003
1.500000000521709e-003	-4.117369e+001	7.499589e-003
1.500000000521995e-003	-4.117369e+001	7.499589e-003
1.500000000522280e-003	-4.117369e+001	7.499589e-003
1.500000000522566e-003	-4.117369e+001	7.499589e-003
1.500000000522851e-003	-4.117369e+001	7.499589e-003
1.500000000523137e-003	-4.117369e+001	7.499589e-003
1.500000000523422e-003	-4.117369e+001	7.499589e-003
1.500000000523707e-003	-4.117369e+001	7.499589e-003
1.500000000525310e-003	-4.117369e+001	7.499589e-003
1.500000000583382e-003	-4.117369e+001	7.499589e-003
1.500000000641454e-003	-4.117369e+001	7.499589e-003
1.500000000699525e-003	-4.117369e+001	7.499589e-003
1.500000000757597e-003	-4.117369e+001	7.499589e-003
1.500000000815668e-003	-4.117369e+001	7.499589e-003
1.500000000873740e-003	-4.117369e+001	7.499589e-003
1.500000000931812e-003	-4.117369e+001	7.499589e-003
1.500000001020976e-003	-4.117369e+001	7.499589e-003
1.500000001110141e-003	-4.117369e+001	7.499589e-003
1.500000001199306e-003	-4.117369e+001	7.499589e-003
1.500000001288471e-003	-4.117369e+001	7.499589e-003
1.500000001377636e-003	-4.117369e+001	7.499589e-003
1.500000001466800e-003	-4.117369e+001	7.499589e-003
1.500000001555965e-003	-4.117369e+001	7.499589e-003
1.500000001649786e-003	-4.117369e+001	7.499589e-003
1.500000001650486e-003	-4.117369e+001	7.499589e-003
1.500000001651186e-003	-4.117369e+001	7.499589e-003
1.500000001651885e-003	-4.117369e+001	7.499589e-003
1.500000001652585e-003	-4.117369e+001	7.499589e-003
1.500000001653285e-003	-4.117369e+001	7.499589e-003
1.500000001653985e-003	-4.117369e+001	7.499589e-003
1.500000001654685e-003	-4.117369e+001	7.499589e-003
1.500000001669097e-003	-4.117369e+001	7.499589e-003
1.500000001688304e-003	-4.117369e+001	7.499589e-003
1.500000001867549e-003	-4.117369e+001	7.499589e-003
1.500000032624383e-003	-4.117369e+001	7.499589e-003
1.500000063381216e-003	-4.117369e+001	7.499589e-003
1.500000094138050e-003	-4.117369e+001	7.499589e-003
1.500000124894884e-003	-4.117369e+001	7.499589e-003
1.500000155651717e-003	-4.117369e+001	7.499589e-003
1.500000186408551e-003	-4.117369e+001	7.499589e-003
1.500000217165384e-003	-4.117369e+001	7.499589e-003
1.623747289273725e-003	-3.637908e+001	7.499637e-003
1.633747289273728e-003	-3.612051e+001	7.499639e-003
1.643747289273731e-003	-3.617545e+001	7.499639e-003
1.653747289273734e-003	-3.654079e+001	7.499635e-003
1.665175860702309e-003	-3.707208e+001	7.499630e-003
1.676604432130884e-003	-3.759749e+001	7.499624e-003
1.688033003559459e-003	-3.811703e+001	7.499619e-003
1.699461574988034e-003	-3.863069e+001	7.499614e-003
1.710890146416609e-003	-3.913848e+001	7.499609e-003
1.722318717845184e-003	-3.964039e+001	7.499604e-003
1.733747289273759e-003	-4.013644e+001	7.499599e-003
1.743747289273762e-003	-4.066964e+001	7.499594e-003
1.753747289273765e-003	-4.150848e+001	7.499585e-003
1.763747289273768e-003	-4.264990e+001	7.499574e-003
1.775175860702343e-003	-4.405840e+001	7.499560e-003
1.786604432130917e-003	-4.545133e+001	7.499546e-003
1.798033003559492e-003	-4.682869e+001	7.499532e-003
1.809461574988067e-003	-4.819047e+001	7.499519e-003
1.820890146416642e-003	-4.953669e+001	7.499505e-003
1.832318717845217e-003	-5.086733e+001	7.499492e-003
1.843747289273792e-003	-5.218240e+001	7.499479e-003
1.853747289273795e-003	-5.311390e+001	-1.339619e+001
1.863747289273798e-003	-5.341424e+001	-4.007011e+001
1.873747289273801e-003	-5.308970e+001	-5.307470e+001
2.000000000000078e-003	-4.678768e+001	-4.677268e+001
2.125000000000113e-003	-4.128756e+001	-4.127256e+001
2.135000000000116e-003	-4.108376e+001	-3.074623e+001
2.145000000000119e-003	-4.150388e+001	-1.020949e+001
2.155000000000122e-003	-4.254171e+001	7.499575e-003
2.185000000000131e-003	-4.620931e+001	7.499538e-003
2.205000000000137e-003	-4.859392e+001	7.499515e-003
2.225000000000144e-003	-5.093127e+001	7.499491e-003
2.235000000000147e-003	-5.208253e+001	7.499480e-003
2.245000000000150e-003	-5.322232e+001	7.499469e-003
2.255000000000153e-003	-5.435077e+001	7.499457e-003
2.265000000000156e-003	-5.540443e+001	7.499447e-003
2.269554712093905e-003	-5.573568e+001	7.499443e-003
2.274756163841457e-003	-5.592917e+001	7.499442e-003
2.288101913311892e-003	-5.629159e+001	7.499438e-003
2.298101913311895e-003	-5.656010e+001	7.499435e-003
2.308101913311898e-003	-5.682612e+001	7.499432e-003
2.328101913311904e-003	-5.735025e+001	7.499427e-003
2.338101913311907e-003	-5.751633e+001	7.499426e-003
2.346099296335287e-003	-5.739848e+001	7.499427e-003
2.354205168009334e-003	-5.701815e+001	7.499430e-003
2.375033001150869e-003	-5.584375e+001	7.499442e-003
2.395860834292404e-003	-5.469221e+001	7.499454e-003
2.416688667433939e-003	-5.356352e+001	7.499465e-003
2.437516500575474e-003	-5.245768e+001	7.499476e-003
2.458344333717009e-003	-5.137470e+001	7.499487e-003
2.479172166858543e-003	-5.031456e+001	7.499497e-003
2.500000000000079e-003	-4.927728e+001	7.499508e-003
2.521424834097466e-003	-4.823371e+001	7.499518e-003
2.542849668194853e-003	-4.721105e+001	7.499528e-003
2.564274502292241e-003	-4.620928e+001	7.499539e-003
2.585699336389628e-003	-4.522842e+001	7.499548e-003
2.607124170487016e-003	-4.426846e+001	7.499558e-003
2.628549004584403e-003	-4.332940e+001	7.499567e-003
2.649973838681791e-003	-4.241124e+001	7.499577e-003
2.659973838681794e-003	-4.207587e+001	7.499580e-003
2.667218735428689e-003	-4.206134e+001	7.499580e-003
2.674611670726919e-003	-4.228923e+001	7.499577e-003
2.708645826658696e-003	-4.366144e+001	7.499564e-003
2.715971080845141e-003	-4.402420e+001	7.499560e-003
2.722767869538678e-003	-4.457087e+001	7.499555e-003
2.729755560803501e-003	-4.534964e+001	7.499547e-003
2.742884121605119e-003	-4.693015e+001	7.499531e-003
2.756012682406737e-003	-4.849084e+001	7.499516e-003
2.769141243208354e-003	-5.003171e+001	7.499500e-003
2.782269804009971e-003	-5.155277e+001	7.499485e-003
2.795398364811589e-003	-5.305402e+001	7.499470e-003
2.808526925613207e-003	-5.453546e+001	7.499455e-003
2.821655486414824e-003	-5.599708e+001	7.499441e-003
2.841655486414831e-003	-5.818775e+001	7.499419e-003
2.861655486414837e-003	-6.033501e+001	7.499397e-003
2.871655486414840e-003	-6.118533e+001	-1.539391e+001
2.881655486414843e-003	-6.140530e+001	-4.604337e+001
2.891655486414846e-003	-6.100120e+001	-6.098620e+001
3.000000000000086e-003	-5.473213e+001	-5.471712e+001
3.115000000000118e-003	-4.878383e+001	-4.876883e+001
3.125000000000121e-003	-4.850539e+001	-3.633097e+001
3.135000000000124e-003	-4.884604e+001	-1.173409e+001
3.144466656715382e-003	-4.975411e+001	7.499503e-003
3.164466656715388e-003	-5.206621e+001	7.499480e-003
3.184466656715394e-003	-5.433469e+001	7.499457e-003
3.204466656715400e-003	-5.655954e+001	7.499435e-003
3.224466656715407e-003	-5.874078e+001	7.499413e-003
3.244466656715413e-003	-6.087838e+001	7.499392e-003
3.264466656715419e-003	-6.297237e+001	7.499371e-003
3.284466656715425e-003	-6.502273e+001	7.499350e-003
3.294466656715428e-003	-6.593003e+001	7.499341e-003
3.304466656715431e-003	-6.651735e+001	7.499335e-003
3.314466656715434e-003	-6.668423e+001	7.499333e-003
3.324466656715437e-003	-6.643774e+001	7.499336e-003
3.333914673861592e-003	-6.591333e+001	7.499341e-003
3.357641149024234e-003	-6.436913e+001	7.499357e-003
3.381367624186876e-003	-6.285900e+001	7.499372e-003
3.405094099349518e-003	-6.138293e+001	7.499387e-003
3.428820574512160e-003	-5.994092e+001	7.499401e-003
3.452547049674802e-003	-5.853298e+001	7.499415e-003
3.476273524837445e-003	-5.715911e+001	7.499429e-003
3.500000000000086e-003	-5.581930e+001	7.499442e-003
3.525000000000094e-003	-5.444281e+001	7.499456e-003
3.550000000000101e-003	-5.309822e+001	7.499469e-003
3.575000000000108e-003	-5.178551e+001	7.499483e-003
3.600000000000115e-003	-5.050469e+001	7.499495e-003
3.625000000000122e-003	-4.925576e+001	7.499508e-003
3.650000000000129e-003	-4.803872e+001	7.499520e-003
3.675000000000137e-003	-4.685357e+001	7.499532e-003
3.685000000000140e-003	-4.659435e+001	7.499535e-003
3.695000000000143e-003	-4.695960e+001	7.499531e-003
3.705000000000146e-003	-4.794311e+001	7.499521e-003
3.726428571428724e-003	-5.045670e+001	7.499496e-003
3.747857142857302e-003	-5.291968e+001	7.499471e-003
3.769285714285880e-003	-5.533203e+001	7.499447e-003
3.790714285714458e-003	-5.769376e+001	7.499424e-003
3.812142857143036e-003	-6.000487e+001	7.499401e-003
3.833571428571614e-003	-6.226535e+001	7.499378e-003
3.855000000000192e-003	-6.447522e+001	7.499356e-003
3.865000000000195e-003	-6.528432e+001	-1.640843e+001
3.875000000000198e-003	-6.546349e+001	-4.907682e+001
3.885000000000201e-003	-6.501897e+001	-6.500396e+001
4.000160187482324e-003	-5.794047e+001	-5.792547e+001
4.110251998900888e-003	-5.189773e+001	-5.188273e+001
4.120251998900891e-003	-5.158829e+001	-3.865084e+001
4.130251998900894e-003	-5.190382e+001	-1.283555e+001
4.140251998900897e-003	-5.283809e+001	7.499472e-003
4.160251998900903e-003	-5.508921e+001	7.499450e-003
4.180251998900909e-003	-5.729784e+001	7.499428e-003
4.200251998900915e-003	-5.946398e+001	7.499406e-003
4.220251998900922e-003	-6.158764e+001	7.499385e-003
4.240251998900928e-003	-6.366881e+001	7.499364e-003
4.260251998900934e-003	-6.570750e+001	7.499344e-003
4.280251998900940e-003	-6.770370e+001	7.499324e-003
4.290251998900943e-003	-6.858430e+001	7.499315e-003
4.300251998900946e-003	-6.914520e+001	7.499309e-003
4.310251998900949e-003	-6.938956e+001	7.499307e-003
4.320251998900952e-003	-6.942419e+001	7.499306e-003
4.330251998900955e-003	-6.914754e+001	7.499309e-003
4.340251998900958e-003	-6.856269e+001	7.499315e-003
4.363073141915120e-003	-6.701684e+001	7.499330e-003
4.385894284929281e-003	-6.550387e+001	7.499346e-003
4.408715427943443e-003	-6.402378e+001	7.499361e-003
4.431536570957603e-003	-6.257658e+001	7.499375e-003
4.454357713971765e-003	-6.116225e+001	7.499389e-003
4.477178856985926e-003	-5.978080e+001	7.499403e-003
4.500000000000087e-003	-5.843224e+001	7.499416e-003
4.520660285949897e-003	-5.723843e+001	7.499428e-003
4.541320571899705e-003	-5.606772e+001	7.499440e-003
4.561980857849515e-003	-5.492011e+001	7.499451e-003
4.582641143799324e-003	-5.379560e+001	7.499462e-003
4.603301429749134e-003	-5.269419e+001	7.499474e-003
4.623961715698942e-003	-5.161587e+001	7.499484e-003
4.644622001648752e-003	-5.056065e+001	7.499495e-003
4.654622001648755e-003	-5.016088e+001	7.499499e-003
4.664622001648758e-003	-5.007603e+001	7.499500e-003
4.674622001648761e-003	-5.030296e+001	7.499497e-003
4.704622001648770e-003	-5.127816e+001	7.499488e-003
4.714622001648773e-003	-5.170043e+001	7.499483e-003
4.724622001648776e-003	-5.242943e+001	7.499476e-003
4.734622001648779e-003	-5.346212e+001	7.499466e-003
4.751764858791641e-003	-5.538427e+001	7.499447e-003
4.768907715934504e-003	-5.727508e+001	7.499428e-003
4.786050573077366e-003	-5.913453e+001	7.499409e-003
4.803193430220229e-003	-6.096262e+001	7.499391e-003
4.820336287363091e-003	-6.275937e+001	7.499373e-003
4.837479144505954e-003	-6.452477e+001	7.499355e-003
4.854622001648816e-003	-6.625881e+001	7.499338e-003
4.864622001648819e-003	-6.705016e+001	-1.684548e+001
4.874622001648822e-003	-6.721173e+001	-5.038362e+001
4.884622001648825e-003	-6.674981e+001	-6.673480e+001
5.000000000000088e-003	-5.946991e+001	-5.945491e+001
5.115000000000120e-003	-5.300671e+001	-5.299171e+001
5.125000000000123e-003	-5.268623e+001	-3.947703e+001
5.135000000000126e-003	-5.299082e+001	-1.311003e+001
5.145000000000129e-003	-5.391428e+001	7.499462e-003
5.160714285714419e-003	-5.567065e+001	7.499444e-003
5.176428571428709e-003	-5.740066e+001	7.499426e-003
5.192142857143000e-003	-5.910429e+001	7.499409e-003
5.207857142857291e-003	-6.078156e+001	7.499393e-003
5.223571428571582e-003	-6.243246e+001	7.499376e-003
5.239285714285872e-003	-6.405699e+001	7.499360e-003
5.255000000000162e-003	-6.565515e+001	7.499344e-003
5.265000000000165e-003	-6.655615e+001	7.499335e-003
5.275000000000168e-003	-6.713724e+001	7.499329e-003
5.285000000000172e-003	-6.740160e+001	7.499326e-003
5.335000000000187e-003	-6.817640e+001	7.499319e-003
5.345000000000190e-003	-6.822311e+001	7.499319e-003
5.355000000000193e-003	-6.795842e+001	7.499321e-003
5.365000000000196e-003	-6.738541e+001	7.499327e-003
5.499999999999790e-003	-5.886887e+001	7.499412e-003
5.500000000000101e-003	-5.886887e+001	7.499412e-003
5.500000000000413e-003	-5.886887e+001	7.499412e-003
5.500000000000724e-003	-5.886887e+001	7.499412e-003
5.500000000001034e-003	-5.886887e+001	7.499412e-003
5.500000000001346e-003	-5.886887e+001	7.499412e-003
5.500000000001657e-003	-5.886887e+001	7.499412e-003
5.500000000001969e-003	-5.886887e+001	7.499412e-003
